Index       TIME              V(IN)            V(IN1)            V(OUT)            V(VDD)            V(GATE)           V(OUT)            I(V_IN)          I(V_VDD)          I(R_LOAD)    
0        0.00000000e+00    0.00000000e+00    0.00000000e+00   -5.60000000e-02    1.00000000e+00    0.00000000e+00   -5.60000000e-02    0.00000000e+00   -1.00000000e-03   -5.60000000e-05
1        2.50000000e-12    0.00000000e+00    0.00000000e+00   -5.60000000e-02    1.00000000e+00    0.00000000e+00   -5.60000000e-02    0.00000000e+00   -1.00000000e-03   -5.60000000e-05
2        7.50000000e-12    0.00000000e+00    0.00000000e+00   -5.59999999e-02    1.00000000e+00    0.00000000e+00   -5.59999999e-02    0.00000000e+00   -1.00000000e-03   -5.59999999e-05
3        1.75000000e-11    0.00000000e+00    0.00000000e+00   -5.59999999e-02    1.00000000e+00    0.00000000e+00   -5.59999999e-02    0.00000000e+00   -1.00000000e-03   -5.59999999e-05
4        2.75000000e-11    0.00000000e+00    0.00000000e+00   -5.59999999e-02    1.00000000e+00    0.00000000e+00   -5.59999999e-02    0.00000000e+00   -1.00000000e-03   -5.59999999e-05
5        3.75000000e-11    0.00000000e+00    0.00000000e+00   -5.59999999e-02    1.00000000e+00    0.00000000e+00   -5.59999999e-02    0.00000000e+00   -1.00000000e-03   -5.59999999e-05
6        4.75000000e-11    0.00000000e+00    0.00000000e+00   -5.59999999e-02    1.00000000e+00    0.00000000e+00   -5.59999999e-02    0.00000000e+00   -1.00000000e-03   -5.59999999e-05
7        5.75000000e-11    0.00000000e+00    0.00000000e+00   -5.59999998e-02    1.00000000e+00    0.00000000e+00   -5.59999998e-02    0.00000000e+00   -1.00000000e-03   -5.59999998e-05
8        6.75000000e-11    0.00000000e+00    0.00000000e+00   -5.59999998e-02    1.00000000e+00    0.00000000e+00   -5.59999998e-02    0.00000000e+00   -1.00000000e-03   -5.59999998e-05
9        7.75000000e-11    0.00000000e+00    0.00000000e+00   -5.59999998e-02    1.00000000e+00    0.00000000e+00   -5.59999998e-02    0.00000000e+00   -1.00000000e-03   -5.59999998e-05
10       8.75000000e-11    0.00000000e+00    0.00000000e+00   -5.59999998e-02    1.00000000e+00    0.00000000e+00   -5.59999998e-02    0.00000000e+00   -1.00000000e-03   -5.59999998e-05
11       9.75000000e-11    0.00000000e+00    0.00000000e+00   -5.59999998e-02    1.00000000e+00    0.00000000e+00   -5.59999998e-02    0.00000000e+00   -1.00000000e-03   -5.59999998e-05
12       1.07500000e-10    0.00000000e+00    0.00000000e+00   -5.59999998e-02    1.00000000e+00    0.00000000e+00   -5.59999998e-02    0.00000000e+00   -1.00000000e-03   -5.59999998e-05
13       1.17500000e-10    0.00000000e+00    0.00000000e+00   -5.59999998e-02    1.00000000e+00    0.00000000e+00   -5.59999998e-02    0.00000000e+00   -1.00000000e-03   -5.59999998e-05
14       1.27500000e-10    0.00000000e+00    0.00000000e+00   -5.59999998e-02    1.00000000e+00    0.00000000e+00   -5.59999998e-02    0.00000000e+00   -1.00000000e-03   -5.59999998e-05
15       1.37500000e-10    0.00000000e+00    0.00000000e+00   -5.59999998e-02    1.00000000e+00    0.00000000e+00   -5.59999998e-02    0.00000000e+00   -1.00000000e-03   -5.59999998e-05
16       1.47500000e-10    0.00000000e+00    0.00000000e+00   -5.59999998e-02    1.00000000e+00    0.00000000e+00   -5.59999998e-02    0.00000000e+00   -1.00000000e-03   -5.59999998e-05
17       1.57500000e-10    0.00000000e+00    0.00000000e+00   -5.59999998e-02    1.00000000e+00    0.00000000e+00   -5.59999998e-02    0.00000000e+00   -1.00000000e-03   -5.59999998e-05
18       1.67500000e-10    0.00000000e+00    0.00000000e+00   -5.59999998e-02    1.00000000e+00    0.00000000e+00   -5.59999998e-02    0.00000000e+00   -1.00000000e-03   -5.59999998e-05
19       1.77500000e-10    0.00000000e+00    0.00000000e+00   -5.59999998e-02    1.00000000e+00    0.00000000e+00   -5.59999998e-02    0.00000000e+00   -1.00000000e-03   -5.59999998e-05
20       1.87500000e-10    0.00000000e+00    0.00000000e+00   -5.59999998e-02    1.00000000e+00    0.00000000e+00   -5.59999998e-02    0.00000000e+00   -1.00000000e-03   -5.59999998e-05
21       1.97500000e-10    0.00000000e+00    0.00000000e+00   -5.59999998e-02    1.00000000e+00    0.00000000e+00   -5.59999998e-02    0.00000000e+00   -1.00000000e-03   -5.59999998e-05
22       2.07500000e-10    0.00000000e+00    0.00000000e+00   -5.59999998e-02    1.00000000e+00    0.00000000e+00   -5.59999998e-02    0.00000000e+00   -1.00000000e-03   -5.59999998e-05
23       2.17500000e-10    0.00000000e+00    0.00000000e+00   -5.59999998e-02    1.00000000e+00    0.00000000e+00   -5.59999998e-02    0.00000000e+00   -1.00000000e-03   -5.59999998e-05
24       2.27500000e-10    0.00000000e+00    0.00000000e+00   -5.59999998e-02    1.00000000e+00    0.00000000e+00   -5.59999998e-02    0.00000000e+00   -1.00000000e-03   -5.59999998e-05
25       2.37500000e-10    0.00000000e+00    0.00000000e+00   -5.59999998e-02    1.00000000e+00    0.00000000e+00   -5.59999998e-02    0.00000000e+00   -1.00000000e-03   -5.59999998e-05
26       2.47500000e-10    0.00000000e+00    0.00000000e+00   -5.59999998e-02    1.00000000e+00    0.00000000e+00   -5.59999998e-02    0.00000000e+00   -1.00000000e-03   -5.59999998e-05
27       2.57500000e-10    0.00000000e+00    0.00000000e+00   -5.59999998e-02    1.00000000e+00    0.00000000e+00   -5.59999998e-02    0.00000000e+00   -1.00000000e-03   -5.59999998e-05
28       2.67500000e-10    0.00000000e+00    0.00000000e+00   -5.59999998e-02    1.00000000e+00    0.00000000e+00   -5.59999998e-02    0.00000000e+00   -1.00000000e-03   -5.59999998e-05
29       2.77500000e-10    0.00000000e+00    0.00000000e+00   -5.59999998e-02    1.00000000e+00    0.00000000e+00   -5.59999998e-02    0.00000000e+00   -1.00000000e-03   -5.59999998e-05
30       2.87500000e-10    0.00000000e+00    0.00000000e+00   -5.59999998e-02    1.00000000e+00    0.00000000e+00   -5.59999998e-02    0.00000000e+00   -1.00000000e-03   -5.59999998e-05
31       2.97500000e-10    0.00000000e+00    0.00000000e+00   -5.59999998e-02    1.00000000e+00    0.00000000e+00   -5.59999998e-02    0.00000000e+00   -1.00000000e-03   -5.59999998e-05
32       3.07500000e-10    0.00000000e+00    0.00000000e+00   -5.59999998e-02    1.00000000e+00    0.00000000e+00   -5.59999998e-02    0.00000000e+00   -1.00000000e-03   -5.59999998e-05
33       3.17500000e-10    0.00000000e+00    0.00000000e+00   -5.59999998e-02    1.00000000e+00    0.00000000e+00   -5.59999998e-02    0.00000000e+00   -1.00000000e-03   -5.59999998e-05
34       3.27500000e-10    0.00000000e+00    0.00000000e+00   -5.59999998e-02    1.00000000e+00    0.00000000e+00   -5.59999998e-02    0.00000000e+00   -1.00000000e-03   -5.59999998e-05
35       3.37500000e-10    0.00000000e+00    0.00000000e+00   -5.59999998e-02    1.00000000e+00    0.00000000e+00   -5.59999998e-02    0.00000000e+00   -1.00000000e-03   -5.59999998e-05
36       3.47500000e-10    0.00000000e+00    0.00000000e+00   -5.59999998e-02    1.00000000e+00    0.00000000e+00   -5.59999998e-02    0.00000000e+00   -1.00000000e-03   -5.59999998e-05
37       3.57500000e-10    0.00000000e+00    0.00000000e+00   -5.59999998e-02    1.00000000e+00    0.00000000e+00   -5.59999998e-02    0.00000000e+00   -1.00000000e-03   -5.59999998e-05
38       3.67500000e-10    0.00000000e+00    0.00000000e+00   -5.59999998e-02    1.00000000e+00    0.00000000e+00   -5.59999998e-02    0.00000000e+00   -1.00000000e-03   -5.59999998e-05
39       3.77500000e-10    0.00000000e+00    0.00000000e+00   -5.59999998e-02    1.00000000e+00    0.00000000e+00   -5.59999998e-02    0.00000000e+00   -1.00000000e-03   -5.59999998e-05
40       3.87500000e-10    0.00000000e+00    0.00000000e+00   -5.59999998e-02    1.00000000e+00    0.00000000e+00   -5.59999998e-02    0.00000000e+00   -1.00000000e-03   -5.59999998e-05
41       3.97500000e-10    0.00000000e+00    0.00000000e+00   -5.59999998e-02    1.00000000e+00    0.00000000e+00   -5.59999998e-02    0.00000000e+00   -1.00000000e-03   -5.59999998e-05
42       4.07500000e-10    0.00000000e+00    0.00000000e+00   -5.59999998e-02    1.00000000e+00    0.00000000e+00   -5.59999998e-02    0.00000000e+00   -1.00000000e-03   -5.59999998e-05
43       4.17500000e-10    0.00000000e+00    0.00000000e+00   -5.59999998e-02    1.00000000e+00    0.00000000e+00   -5.59999998e-02    0.00000000e+00   -1.00000000e-03   -5.59999998e-05
44       4.27500000e-10    0.00000000e+00    0.00000000e+00   -5.59999998e-02    1.00000000e+00    0.00000000e+00   -5.59999998e-02    0.00000000e+00   -1.00000000e-03   -5.59999998e-05
45       4.37500000e-10    0.00000000e+00    0.00000000e+00   -5.59999998e-02    1.00000000e+00    0.00000000e+00   -5.59999998e-02    0.00000000e+00   -1.00000000e-03   -5.59999998e-05
46       4.47500000e-10    0.00000000e+00    0.00000000e+00   -5.59999998e-02    1.00000000e+00    0.00000000e+00   -5.59999998e-02    0.00000000e+00   -1.00000000e-03   -5.59999998e-05
47       4.57500000e-10    0.00000000e+00    0.00000000e+00   -5.59999998e-02    1.00000000e+00    0.00000000e+00   -5.59999998e-02    0.00000000e+00   -1.00000000e-03   -5.59999998e-05
48       4.67500000e-10    0.00000000e+00    0.00000000e+00   -5.59999998e-02    1.00000000e+00    0.00000000e+00   -5.59999998e-02    0.00000000e+00   -1.00000000e-03   -5.59999998e-05
49       4.77500000e-10    0.00000000e+00    0.00000000e+00   -5.59999998e-02    1.00000000e+00    0.00000000e+00   -5.59999998e-02    0.00000000e+00   -1.00000000e-03   -5.59999998e-05
50       4.87500000e-10    0.00000000e+00    0.00000000e+00   -5.59999998e-02    1.00000000e+00    0.00000000e+00   -5.59999998e-02    0.00000000e+00   -1.00000000e-03   -5.59999998e-05
51       4.97500000e-10    0.00000000e+00    0.00000000e+00   -5.59999998e-02    1.00000000e+00    0.00000000e+00   -5.59999998e-02    0.00000000e+00   -1.00000000e-03   -5.59999998e-05
52       5.00000000e-10    0.00000000e+00    0.00000000e+00   -5.59999998e-02    1.00000000e+00    0.00000000e+00   -5.59999998e-02    0.00000000e+00   -1.00000000e-03   -5.59999998e-05
53       5.00062500e-10    0.00000000e+00    0.00000000e+00   -5.59999998e-02    1.00000000e+00    6.25000000e-03   -5.59999998e-02    0.00000000e+00   -1.00000000e-03   -5.59999998e-05
54       5.00187500e-10    0.00000000e+00    0.00000000e+00   -5.59999998e-02    1.00000000e+00    1.87500000e-02   -5.59999998e-02    0.00000000e+00   -1.00000000e-03   -5.59999998e-05
55       5.00437500e-10    0.00000000e+00    0.00000000e+00   -5.59999998e-02    1.00000000e+00    4.37500000e-02   -5.59999998e-02    0.00000000e+00   -1.00000000e-03   -5.59999998e-05
56       5.00937500e-10    0.00000000e+00    0.00000000e+00   -5.59999998e-02    1.00000000e+00    9.37500000e-02   -5.59999998e-02    0.00000000e+00   -1.00000000e-03   -5.59999998e-05
57       5.01937500e-10    0.00000000e+00    0.00000000e+00   -5.59999997e-02    1.00000000e+00    1.93750000e-01   -5.59999997e-02    0.00000000e+00   -9.99999999e-04   -5.59999997e-05
58       5.02650332e-10    0.00000000e+00    0.00000000e+00   -5.59486411e-02    1.00000000e+00    2.65033223e-01   -5.59486411e-02    0.00000000e+00   -9.99082881e-04   -5.59486411e-05
59       5.02777657e-10    0.00000000e+00    0.00000000e+00   -5.53515410e-02    1.00000000e+00    2.77765694e-01   -5.53515410e-02    0.00000000e+00   -9.88420378e-04   -5.53515410e-05
60       5.02894610e-10    0.00000000e+00    0.00000000e+00   -4.99328534e-02    1.00000000e+00    2.89461046e-01   -4.99328534e-02    0.00000000e+00   -8.91658100e-04   -4.99328534e-05
61       5.02941211e-10    0.00000000e+00    0.00000000e+00   -4.27946034e-02    1.00000000e+00    2.94121068e-01   -4.27946034e-02    0.00000000e+00   -7.64189350e-04   -4.27946034e-05
62       5.02987811e-10    0.00000000e+00    0.00000000e+00   -3.13961466e-02    1.00000000e+00    2.98781089e-01   -3.13961466e-02    0.00000000e+00   -5.60645477e-04   -3.13961466e-05
63       5.03029751e-10    0.00000000e+00    0.00000000e+00   -1.99070731e-02    1.00000000e+00    3.02975109e-01   -1.99070731e-02    0.00000000e+00   -3.55483449e-04   -1.99070731e-05
64       5.03071691e-10    0.00000000e+00    0.00000000e+00   -1.07801843e-02    1.00000000e+00    3.07169129e-01   -1.07801843e-02    0.00000000e+00   -1.92503292e-04   -1.07801843e-05
65       5.03113631e-10    0.00000000e+00    0.00000000e+00   -5.23125528e-03    1.00000000e+00    3.11363148e-01   -5.23125528e-03    0.00000000e+00   -9.34152732e-05   -5.23125528e-06
66       5.03155572e-10    0.00000000e+00    0.00000000e+00   -2.38773294e-03    1.00000000e+00    3.15557168e-01   -2.38773294e-03    0.00000000e+00   -4.26380883e-05   -2.38773294e-06
67       5.03239452e-10    0.00000000e+00    0.00000000e+00   -4.62099201e-04    1.00000000e+00    3.23945207e-01   -4.62099201e-04    0.00000000e+00   -8.25177148e-06   -4.62099201e-07
68       5.03323332e-10    0.00000000e+00    0.00000000e+00   -8.69127335e-05    1.00000000e+00    3.32333246e-01   -8.69127335e-05    0.00000000e+00   -1.55201310e-06   -8.69127335e-08
69       5.03491093e-10    0.00000000e+00    0.00000000e+00   -3.03796496e-06    1.00000000e+00    3.49109324e-01   -3.03796496e-06    0.00000000e+00   -5.42493746e-08   -3.03796496e-09
70       5.03658854e-10    0.00000000e+00    0.00000000e+00   -1.06036127e-07    1.00000000e+00    3.65885402e-01   -1.06036127e-07    0.00000000e+00   -1.89350228e-09   -1.06036127e-10
71       5.03994376e-10    0.00000000e+00    0.00000000e+00   -1.29166940e-10    1.00000000e+00    3.99437559e-01   -1.29166940e-10    0.00000000e+00   -2.30655254e-12   -1.29166940e-13
72       5.04665419e-10    0.00000000e+00    0.00000000e+00   -1.98266696e-16    1.00000000e+00    4.66541872e-01   -1.98266696e-16    0.00000000e+00   -3.52018952e-18   -1.98266696e-19
73       5.06007505e-10    0.00000000e+00    0.00000000e+00    5.53197218e-18    1.00000000e+00    6.00750498e-01    5.53197218e-18    0.00000000e+00    7.84977858e-20    5.53197218e-21
74       5.08691677e-10    0.00000000e+00    0.00000000e+00   -5.53197228e-18    1.00000000e+00    8.69167750e-01   -5.53197228e-18    0.00000000e+00   -7.84977858e-20   -5.53197228e-21
75       5.10000000e-10    0.00000000e+00    0.00000000e+00    5.53197228e-18    1.00000000e+00    1.00000000e+00    5.53197228e-18    0.00000000e+00    7.84977858e-20    5.53197228e-21
76       5.10536835e-10    0.00000000e+00    0.00000000e+00    0.00000000e+00    1.00000000e+00    1.00000000e+00    0.00000000e+00    0.00000000e+00    0.00000000e+00    0.00000000e+00
77       5.11610504e-10    0.00000000e+00    0.00000000e+00    0.00000000e+00    1.00000000e+00    1.00000000e+00    0.00000000e+00    0.00000000e+00    0.00000000e+00    0.00000000e+00
78       5.13757842e-10    0.00000000e+00    0.00000000e+00    0.00000000e+00    1.00000000e+00    1.00000000e+00    0.00000000e+00    0.00000000e+00    0.00000000e+00    0.00000000e+00
79       5.18052518e-10    0.00000000e+00    0.00000000e+00    0.00000000e+00    1.00000000e+00    1.00000000e+00    0.00000000e+00    0.00000000e+00    0.00000000e+00    0.00000000e+00
80       5.26641870e-10    0.00000000e+00    0.00000000e+00    0.00000000e+00    1.00000000e+00    1.00000000e+00    0.00000000e+00    0.00000000e+00    0.00000000e+00    0.00000000e+00
81       5.36641870e-10    0.00000000e+00    0.00000000e+00    0.00000000e+00    1.00000000e+00    1.00000000e+00    0.00000000e+00    0.00000000e+00    0.00000000e+00    0.00000000e+00
82       5.46641870e-10    0.00000000e+00    0.00000000e+00    0.00000000e+00    1.00000000e+00    1.00000000e+00    0.00000000e+00    0.00000000e+00    0.00000000e+00    0.00000000e+00
83       5.56641870e-10    0.00000000e+00    0.00000000e+00    0.00000000e+00    1.00000000e+00    1.00000000e+00    0.00000000e+00    0.00000000e+00    0.00000000e+00    0.00000000e+00
84       5.66641870e-10    0.00000000e+00    0.00000000e+00    0.00000000e+00    1.00000000e+00    1.00000000e+00    0.00000000e+00    0.00000000e+00    0.00000000e+00    0.00000000e+00
85       5.76641870e-10    0.00000000e+00    0.00000000e+00    0.00000000e+00    1.00000000e+00    1.00000000e+00    0.00000000e+00    0.00000000e+00    0.00000000e+00    0.00000000e+00
86       5.86641870e-10    0.00000000e+00    0.00000000e+00    0.00000000e+00    1.00000000e+00    1.00000000e+00    0.00000000e+00    0.00000000e+00    0.00000000e+00    0.00000000e+00
87       5.96641870e-10    0.00000000e+00    0.00000000e+00    0.00000000e+00    1.00000000e+00    1.00000000e+00    0.00000000e+00    0.00000000e+00    0.00000000e+00    0.00000000e+00
88       6.00000000e-10    0.00000000e+00    0.00000000e+00    0.00000000e+00    1.00000000e+00    1.00000000e+00    0.00000000e+00    0.00000000e+00    0.00000000e+00    0.00000000e+00
89       6.00062500e-10    5.00000000e-03    1.45011342e-03    0.00000000e+00    1.00000000e+00    1.00000000e+00    0.00000000e+00   -3.54988658e-06    0.00000000e+00    0.00000000e+00
90       6.00187500e-10    1.50000000e-02    7.54267922e-03    0.00000000e+00    1.00000000e+00    1.00000000e+00    0.00000000e+00   -7.45732078e-06    0.00000000e+00    0.00000000e+00
91       6.00300000e-10    2.40000000e-02    1.45161087e-02    0.00000000e+00    1.00000000e+00    1.00000000e+00    0.00000000e+00   -9.48389134e-06    0.00000000e+00    0.00000000e+00
92       6.00412500e-10    3.30000000e-02    2.20343135e-02    0.00000000e+00    1.00000000e+00    1.00000000e+00    0.00000000e+00   -1.09656865e-05    0.00000000e+00    0.00000000e+00
93       6.00637500e-10    5.10000000e-02    3.89543552e-02    0.00000000e+00    1.00000000e+00    1.00000000e+00    0.00000000e+00   -1.20456448e-05    0.00000000e+00    0.00000000e+00
94       6.01087500e-10    8.70000000e-02    7.47229237e-02    0.00000000e+00    1.00000000e+00    1.00000000e+00    0.00000000e+00   -1.22770763e-05    0.00000000e+00    0.00000000e+00
95       6.01537500e-10    1.23000000e-01    1.10766992e-01    0.00000000e+00    1.00000000e+00    1.00000000e+00    0.00000000e+00   -1.22330080e-05    0.00000000e+00    0.00000000e+00
96       6.02437500e-10    1.95000000e-01    1.82756442e-01    0.00000000e+00    1.00000000e+00    1.00000000e+00    0.00000000e+00   -1.22435575e-05    0.00000000e+00    0.00000000e+00
97       6.04237500e-10    3.39000000e-01    3.26762334e-01    0.00000000e+00    1.00000000e+00    1.00000000e+00    0.00000000e+00   -1.22376656e-05    0.00000000e+00    0.00000000e+00
98       6.07837500e-10    6.27000000e-01    6.14757700e-01    0.00000000e+00    1.00000000e+00    1.00000000e+00    0.00000000e+00   -1.22423002e-05    0.00000000e+00    0.00000000e+00
99       6.10000000e-10    8.00000000e-01    7.87761286e-01    0.00000000e+00    1.00000000e+00    1.00000000e+00    0.00000000e+00   -1.22387145e-05    0.00000000e+00    0.00000000e+00
100      6.10217821e-10    8.00000000e-01    7.94950170e-01    0.00000000e+00    1.00000000e+00    1.00000000e+00    0.00000000e+00   -5.04983000e-06    0.00000000e+00    0.00000000e+00
101      6.10383945e-10    8.00000000e-01    7.97578786e-01    0.00000000e+00    1.00000000e+00    1.00000000e+00    0.00000000e+00   -2.42121447e-06    0.00000000e+00    0.00000000e+00
102      6.10550068e-10    8.00000000e-01    7.99282484e-01    0.00000000e+00    1.00000000e+00    1.00000000e+00    0.00000000e+00   -7.17515560e-07    0.00000000e+00    0.00000000e+00
103      6.10882316e-10    8.00000000e-01    8.00029240e-01    0.00000000e+00    1.00000000e+00    1.00000000e+00    0.00000000e+00    2.92403504e-08    0.00000000e+00    0.00000000e+00
104      6.11546812e-10    8.00000000e-01    7.99988848e-01    0.00000000e+00    1.00000000e+00    1.00000000e+00    0.00000000e+00   -1.11517578e-08    0.00000000e+00    0.00000000e+00
105      6.12211307e-10    8.00000000e-01    8.00003769e-01    0.00000000e+00    1.00000000e+00    1.00000000e+00    0.00000000e+00    3.76882051e-09    0.00000000e+00    0.00000000e+00
