Index       TIME              V(IN)            V(IN1)            V(OUT)            V(VDD)            V(GATE)           V(OUT)            I(V_IN)          I(V_VDD)          I(R_LOAD)    
0        0.00000000e+00    8.00000000e-01    0.00000000e+00   -5.60000000e-02    1.00000000e+00    0.00000000e+00   -5.60000000e-02   -8.00000000e-04   -1.00000000e-03   -5.60000000e-05
1        5.00000000e-13    8.00000000e-01    6.12556934e-01   -5.60000000e-02    1.00000000e+00    0.00000000e+00   -5.60000000e-02   -1.87443066e-04   -1.00000000e-03   -5.60000000e-05
2        5.62500000e-13    8.00000000e-01    6.66919618e-01   -5.60000000e-02    1.00000000e+00    0.00000000e+00   -5.60000000e-02   -1.33080382e-04   -1.00000000e-03   -5.60000000e-05
3        5.91000093e-13    8.00000000e-01    6.87816519e-01   -5.60000000e-02    1.00000000e+00    0.00000000e+00   -5.60000000e-02   -1.12183481e-04   -1.00000000e-03   -5.60000000e-05
4        6.19500186e-13    8.00000000e-01    7.06932964e-01   -5.60000000e-02    1.00000000e+00    0.00000000e+00   -5.60000000e-02   -9.30670363e-05   -1.00000000e-03   -5.60000000e-05
5        6.76500373e-13    8.00000000e-01    7.36160577e-01   -5.60000000e-02    1.00000000e+00    0.00000000e+00   -5.60000000e-02   -6.38394228e-05   -1.00000000e-03   -5.60000000e-05
6        7.33500559e-13    8.00000000e-01    7.56209261e-01   -5.60000000e-02    1.00000000e+00    0.00000000e+00   -5.60000000e-02   -4.37907386e-05   -1.00000000e-03   -5.60000000e-05
7        7.90500745e-13    8.00000000e-01    7.69961658e-01   -5.60000000e-02    1.00000000e+00    0.00000000e+00   -5.60000000e-02   -3.00383417e-05   -1.00000000e-03   -5.60000000e-05
8        8.47500932e-13    8.00000000e-01    7.79395116e-01   -5.60000000e-02    1.00000000e+00    0.00000000e+00   -5.60000000e-02   -2.06048838e-05   -1.00000000e-03   -5.60000000e-05
9        9.61501304e-13    8.00000000e-01    7.90580495e-01   -5.60000000e-02    1.00000000e+00    0.00000000e+00   -5.60000000e-02   -9.41950463e-06   -1.00000000e-03   -5.60000000e-05
10       1.07550168e-12    8.00000000e-01    7.95693806e-01   -5.60000000e-02    1.00000000e+00    0.00000000e+00   -5.60000000e-02   -4.30619376e-06   -1.00000000e-03   -5.60000000e-05
11       1.18950205e-12    8.00000000e-01    7.98031317e-01   -5.60000000e-02    1.00000000e+00    0.00000000e+00   -5.60000000e-02   -1.96868265e-06   -1.00000000e-03   -5.60000000e-05
12       1.41750279e-12    8.00000000e-01    7.99712222e-01   -5.60000000e-02    1.00000000e+00    0.00000000e+00   -5.60000000e-02   -2.87777838e-07   -1.00000000e-03   -5.60000000e-05
13       1.64550354e-12    8.00000000e-01    7.99957747e-01   -5.60000000e-02    1.00000000e+00    0.00000000e+00   -5.60000000e-02   -4.22534030e-08   -1.00000000e-03   -5.60000000e-05
14       2.10150503e-12    8.00000000e-01    8.00008011e-01   -5.60000000e-02    1.00000000e+00    0.00000000e+00   -5.60000000e-02    8.01122947e-09   -1.00000000e-03   -5.60000000e-05
15       2.55750652e-12    8.00000000e-01    7.99998117e-01   -5.60000000e-02    1.00000000e+00    0.00000000e+00   -5.60000000e-02   -1.88341224e-09   -1.00000000e-03   -5.60000000e-05
16       3.46950950e-12    8.00000000e-01    8.00000554e-01   -5.60000000e-02    1.00000000e+00    0.00000000e+00   -5.60000000e-02    5.53698250e-10   -1.00000000e-03   -5.60000000e-05
17       5.29351546e-12    8.00000000e-01    7.99999167e-01   -5.60000000e-02    1.00000000e+00    0.00000000e+00   -5.60000000e-02   -8.33053203e-10   -1.00000000e-03   -5.60000000e-05
18       8.94152739e-12    8.00000000e-01    8.00000232e-01   -5.60000000e-02    1.00000000e+00    0.00000000e+00   -5.60000000e-02    2.31736202e-10   -1.00000000e-03   -5.60000000e-05
19       1.62375512e-11    8.00000000e-01    7.99999296e-01   -5.60000000e-02    1.00000000e+00    0.00000000e+00   -5.60000000e-02   -7.04472633e-10   -1.00000000e-03   -5.60000000e-05
20       2.62375512e-11    8.00000000e-01    8.00000166e-01   -5.60000000e-02    1.00000000e+00    0.00000000e+00   -5.60000000e-02    1.65838039e-10   -1.00000000e-03   -5.60000000e-05
21       3.62375512e-11    8.00000000e-01    7.99999347e-01   -5.60000000e-02    1.00000000e+00    0.00000000e+00   -5.60000000e-02   -6.52792442e-10   -1.00000000e-03   -5.60000000e-05
22       4.62375512e-11    8.00000000e-01    8.00000117e-01   -5.60000000e-02    1.00000000e+00    0.00000000e+00   -5.60000000e-02    1.17223833e-10   -1.00000000e-03   -5.60000000e-05
23       5.62375512e-11    8.00000000e-01    7.99999393e-01   -5.60000000e-02    1.00000000e+00    0.00000000e+00   -5.60000000e-02   -6.07068034e-10   -1.00000000e-03   -5.60000000e-05
24       6.62375512e-11    8.00000000e-01    8.00000074e-01   -5.60000000e-02    1.00000000e+00    0.00000000e+00   -5.60000000e-02    7.42117360e-11   -1.00000000e-03   -5.60000000e-05
25       7.62375512e-11    8.00000000e-01    7.99999433e-01   -5.60000000e-02    1.00000000e+00    0.00000000e+00   -5.60000000e-02   -5.66613066e-10   -1.00000000e-03   -5.60000000e-05
26       8.62375512e-11    8.00000000e-01    8.00000036e-01   -5.60000000e-02    1.00000000e+00    0.00000000e+00   -5.60000000e-02    3.61561643e-11   -1.00000000e-03   -5.60000000e-05
27       9.62375512e-11    8.00000000e-01    7.99999469e-01   -5.60000000e-02    1.00000000e+00    0.00000000e+00   -5.60000000e-02   -5.30820289e-10   -1.00000000e-03   -5.60000000e-05
28       1.00000000e-10    8.00000000e-01    7.99999977e-01   -5.60000000e-02    1.00000000e+00    0.00000000e+00   -5.60000000e-02   -2.25334536e-11   -1.00000000e-03   -5.60000000e-05
29       1.00006250e-10    7.90000000e-01    7.99607505e-01   -5.60000000e-02    1.00000000e+00    0.00000000e+00   -5.60000000e-02    9.60750453e-06   -1.00000000e-03   -5.60000000e-05
30       1.00012500e-10    7.80000000e-01    7.98837971e-01   -5.60000000e-02    1.00000000e+00    0.00000000e+00   -5.60000000e-02    1.88379710e-05   -1.00000000e-03   -5.60000000e-05
31       1.00025000e-10    7.60000000e-01    7.96574379e-01   -5.60000000e-02    1.00000000e+00    0.00000000e+00   -5.60000000e-02    3.65743791e-05   -1.00000000e-03   -5.60000000e-05
32       1.00050000e-10    7.20000000e-01    7.88028381e-01   -5.60000000e-02    1.00000000e+00    0.00000000e+00   -5.60000000e-02    6.80283810e-05   -1.00000000e-03   -5.60000000e-05
33       1.00075000e-10    6.80000000e-01    7.74731034e-01   -5.60000000e-02    1.00000000e+00    0.00000000e+00   -5.60000000e-02    9.47310341e-05   -1.00000000e-03   -5.60000000e-05
34       1.00100000e-10    6.40000000e-01    7.57400063e-01   -5.60000000e-02    1.00000000e+00    0.00000000e+00   -5.60000000e-02    1.17400063e-04   -1.00000000e-03   -5.60000000e-05
35       1.00125000e-10    6.00000000e-01    7.36644777e-01   -5.60000000e-02    1.00000000e+00    0.00000000e+00   -5.60000000e-02    1.36644777e-04   -1.00000000e-03   -5.60000000e-05
36       1.00150000e-10    5.60000000e-01    7.12982441e-01   -5.60000000e-02    1.00000000e+00    0.00000000e+00   -5.60000000e-02    1.52982441e-04   -1.00000000e-03   -5.60000000e-05
37       1.00175000e-10    5.20000000e-01    6.86852187e-01   -5.60000000e-02    1.00000000e+00    0.00000000e+00   -5.60000000e-02    1.66852187e-04   -1.00000000e-03   -5.60000000e-05
38       1.00225000e-10    4.40000000e-01    6.28747700e-01   -5.60000000e-02    1.00000000e+00    0.00000000e+00   -5.60000000e-02    1.88747700e-04   -1.00000000e-03   -5.60000000e-05
39       1.00275000e-10    3.60000000e-01    5.64492806e-01   -5.60000000e-02    1.00000000e+00    0.00000000e+00   -5.60000000e-02    2.04492806e-04   -1.00000000e-03   -5.60000000e-05
40       1.00325000e-10    2.80000000e-01    4.95815145e-01   -5.60000000e-02    1.00000000e+00    0.00000000e+00   -5.60000000e-02    2.15815145e-04   -1.00000000e-03   -5.60000000e-05
41       1.00375000e-10    2.00000000e-01    4.23957064e-01   -5.60000000e-02    1.00000000e+00    0.00000000e+00   -5.60000000e-02    2.23957064e-04   -1.00000000e-03   -5.60000000e-05
42       1.00475000e-10    4.00000000e-02    2.74224735e-01   -5.60000000e-02    1.00000000e+00    0.00000000e+00   -5.60000000e-02    2.34224735e-04   -1.00000000e-03   -5.60000000e-05
43       1.00675000e-10   -2.80000000e-01   -3.74149515e-02   -5.57779101e-02    1.00000000e+00    0.00000000e+00   -5.57779101e-02    2.42585048e-04   -1.00000000e-03   -5.57779101e-05
44       1.00875000e-10   -6.00000000e-01   -3.55663492e-01   -5.53331538e-02    1.00000000e+00    0.00000000e+00   -5.53331538e-02    2.44336508e-04   -1.00000000e-03   -5.53331538e-05
45       1.01000000e-10   -8.00000000e-01   -5.55394222e-01   -5.50551684e-02    1.00000000e+00    0.00000000e+00   -5.50551684e-02    2.44605778e-04   -1.00000000e-03   -5.50551684e-05
46       1.01006687e-10   -8.00000000e-01   -5.65636848e-01   -5.50403185e-02    1.00000000e+00    0.00000000e+00   -5.50403185e-02    2.34363152e-04   -1.00000000e-03   -5.50403185e-05
47       1.01011934e-10   -8.00000000e-01   -5.73408019e-01   -5.50286665e-02    1.00000000e+00    0.00000000e+00   -5.50286665e-02    2.26591981e-04   -1.00000000e-03   -5.50286665e-05
48       1.01022429e-10   -8.00000000e-01   -5.88434998e-01   -5.50053649e-02    1.00000000e+00    0.00000000e+00   -5.50053649e-02    2.11565002e-04   -1.00000000e-03   -5.50053649e-05
49       1.01043418e-10   -8.00000000e-01   -6.15595256e-01   -5.49587766e-02    1.00000000e+00    0.00000000e+00   -5.49587766e-02    1.84404744e-04   -1.00000000e-03   -5.49587766e-05
50       1.01064407e-10   -8.00000000e-01   -6.39268734e-01   -5.49122077e-02    1.00000000e+00    0.00000000e+00   -5.49122077e-02    1.60731266e-04   -1.00000000e-03   -5.49122077e-05
51       1.01085396e-10   -8.00000000e-01   -6.59903059e-01   -5.48656585e-02    1.00000000e+00    0.00000000e+00   -5.48656585e-02    1.40096941e-04   -1.00000000e-03   -5.48656585e-05
52       1.01106385e-10   -8.00000000e-01   -6.77888390e-01   -5.48191287e-02    1.00000000e+00    0.00000000e+00   -5.48191287e-02    1.22111610e-04   -1.00000000e-03   -5.48191287e-05
53       1.01148363e-10   -8.00000000e-01   -7.07350095e-01   -5.47261278e-02    1.00000000e+00    0.00000000e+00   -5.47261278e-02    9.26499054e-05   -1.00000000e-03   -5.47261278e-05
54       1.01190342e-10   -8.00000000e-01   -7.29703598e-01   -5.46332049e-02    1.00000000e+00    0.00000000e+00   -5.46332049e-02    7.02964020e-05   -1.00000000e-03   -5.46332049e-05
55       1.01232320e-10   -8.00000000e-01   -7.46663890e-01   -5.45403601e-02    1.00000000e+00    0.00000000e+00   -5.45403601e-02    5.33361097e-05   -1.00000000e-03   -5.45403601e-05
56       1.01274298e-10   -8.00000000e-01   -7.59532187e-01   -5.44475931e-02    1.00000000e+00    0.00000000e+00   -5.44475931e-02    4.04678129e-05   -1.00000000e-03   -5.44475931e-05
57       1.01316277e-10   -8.00000000e-01   -7.69295761e-01   -5.43549040e-02    1.00000000e+00    0.00000000e+00   -5.43549040e-02    3.07042393e-05   -1.00000000e-03   -5.43549040e-05
58       1.01400233e-10   -8.00000000e-01   -7.82516706e-01   -5.41697590e-02    1.00000000e+00    0.00000000e+00   -5.41697590e-02    1.74832938e-05   -1.00000000e-03   -5.41697590e-05
59       1.01568146e-10   -8.00000000e-01   -7.94905593e-01   -5.38004001e-02    1.00000000e+00    0.00000000e+00   -5.38004001e-02    5.09440679e-06   -1.00000000e-03   -5.38004001e-05
60       1.01736060e-10   -8.00000000e-01   -7.98515427e-01   -5.34322796e-02    1.00000000e+00    0.00000000e+00   -5.34322796e-02    1.48457311e-06   -1.00000000e-03   -5.34322796e-05
61       1.01903973e-10   -8.00000000e-01   -7.99567249e-01   -5.30653932e-02    1.00000000e+00    0.00000000e+00   -5.30653932e-02    4.32751496e-07   -1.00000000e-03   -5.30653932e-05
62       1.02071886e-10   -8.00000000e-01   -7.99873725e-01   -5.26997369e-02    1.00000000e+00    0.00000000e+00   -5.26997369e-02    1.26275128e-07   -1.00000000e-03   -5.26997369e-05
63       1.02407712e-10   -8.00000000e-01   -8.00005600e-01   -5.19720958e-02    1.00000000e+00    0.00000000e+00   -5.19720958e-02   -5.60011762e-09   -1.00000000e-03   -5.19720958e-05
64       1.02743539e-10   -8.00000000e-01   -7.99999472e-01   -5.12493256e-02    1.00000000e+00    0.00000000e+00   -5.12493256e-02    5.28125920e-10   -1.00000000e-03   -5.12493256e-05
65       1.03415191e-10   -8.00000000e-01   -7.99999846e-01   -4.98182515e-02    1.00000000e+00    0.00000000e+00   -4.98182515e-02    1.54211881e-10   -1.00000000e-03   -4.98182515e-05
66       1.04758497e-10   -8.00000000e-01   -7.99999680e-01   -4.70130100e-02    1.00000000e+00    0.00000000e+00   -4.70130100e-02    3.20005900e-10   -1.00000000e-03   -4.70130100e-05
67       1.07445107e-10   -8.00000000e-01   -7.99999795e-01   -4.16227093e-02    1.00000000e+00    0.00000000e+00   -4.16227093e-02    2.05070489e-10   -1.00000000e-03   -4.16227093e-05
68       1.10131718e-10   -8.00000000e-01   -7.99999703e-01   -3.65144637e-02    1.00000000e+00    0.00000000e+00   -3.65144637e-02    2.96501503e-10   -1.00000000e-03   -3.65144637e-05
69       1.12818329e-10   -8.00000000e-01   -7.99999776e-01   -3.16735142e-02    1.00000000e+00    0.00000000e+00   -3.16735142e-02    2.23768871e-10   -1.00000000e-03   -3.16735142e-05
70       1.15504939e-10   -8.00000000e-01   -7.99999718e-01   -2.70858743e-02    1.00000000e+00    0.00000000e+00   -2.70858743e-02    2.81627748e-10   -1.00000000e-03   -2.70858743e-05
71       1.18191550e-10   -8.00000000e-01   -7.99999764e-01   -2.27382890e-02    1.00000000e+00    0.00000000e+00   -2.27382890e-02    2.35601614e-10   -1.00000000e-03   -2.27382890e-05
72       1.20878161e-10   -8.00000000e-01   -7.99999728e-01   -1.86181972e-02    1.00000000e+00    0.00000000e+00   -1.86181972e-02    2.72215580e-10   -1.00000000e-03   -1.86181972e-05
73       1.23564771e-10   -8.00000000e-01   -7.99999757e-01   -1.47136951e-02    1.00000000e+00    0.00000000e+00   -1.47136951e-02    2.43089686e-10   -1.00000000e-03   -1.47136951e-05
74       1.26251382e-10   -8.00000000e-01   -7.99999734e-01   -1.10135015e-02    1.00000000e+00    0.00000000e+00   -1.10135015e-02    2.66259581e-10   -1.00000000e-03   -1.10135015e-05
75       1.28937993e-10   -8.00000000e-01   -7.99999752e-01   -7.50692574e-03    1.00000000e+00    0.00000000e+00   -7.50692574e-03    2.47828390e-10   -1.00000000e-03   -7.50692574e-06
76       1.31624604e-10   -8.00000000e-01   -7.99999738e-01   -4.18383650e-03    1.00000000e+00    0.00000000e+00   -4.18383650e-03    2.62490692e-10   -1.00000000e-03   -4.18383650e-06
77       1.34311214e-10   -8.00000000e-01   -7.99999749e-01   -1.03463257e-03    1.00000000e+00    0.00000000e+00   -1.03463257e-03    2.50827257e-10   -1.00000000e-03   -1.03463257e-06
78       1.36997825e-10   -8.00000000e-01   -7.99999740e-01    1.94978482e-03    1.00000000e+00    0.00000000e+00    1.94978482e-03    2.60105837e-10   -1.00000000e-03    1.94978482e-06
79       1.39684436e-10   -8.00000000e-01   -7.99999747e-01    4.77803838e-03    1.00000000e+00    0.00000000e+00    4.77803838e-03    2.52725130e-10   -1.00000000e-03    4.77803838e-06
80       1.42371046e-10   -8.00000000e-01   -7.99999741e-01    7.45829959e-03    1.00000000e+00    0.00000000e+00    7.45829959e-03    2.58596818e-10   -1.00000000e-03    7.45829959e-06
81       1.45057657e-10   -8.00000000e-01   -7.99999746e-01    9.99831236e-03    1.00000000e+00    0.00000000e+00    9.99831236e-03    2.53926280e-10   -1.00000000e-03    9.99831236e-06
82       1.47744268e-10   -8.00000000e-01   -7.99999742e-01    1.24054154e-02    1.00000000e+00    0.00000000e+00    1.24054154e-02    2.57642039e-10   -1.00000000e-03    1.24054154e-05
83       1.53117489e-10   -8.00000000e-01   -7.99999745e-01    1.68513904e-02    1.00000000e+00    0.00000000e+00    1.68513904e-02    2.54527481e-10   -1.00000000e-03    1.68513904e-05
84       1.58490710e-10   -8.00000000e-01   -7.99999743e-01    2.08439445e-02    1.00000000e+00    0.00000000e+00    2.08439445e-02    2.57307180e-10   -1.00000000e-03    2.08439445e-05
85       1.63863932e-10   -8.00000000e-01   -7.99999745e-01    2.44293198e-02    1.00000000e+00    0.00000000e+00    2.44293198e-02    2.54827796e-10   -1.00000000e-03    2.44293198e-05
86       1.69237153e-10   -8.00000000e-01   -7.99999743e-01    2.76490421e-02    1.00000000e+00    0.00000000e+00    2.76490421e-02    2.57040768e-10   -1.00000000e-03    2.76490421e-05
87       1.74610375e-10   -8.00000000e-01   -7.99999745e-01    3.05404023e-02    1.00000000e+00    0.00000000e+00    3.05404023e-02    2.55067040e-10   -1.00000000e-03    3.05404023e-05
88       1.79983596e-10   -8.00000000e-01   -7.99999743e-01    3.31368885e-02    1.00000000e+00    0.00000000e+00    3.31368885e-02    2.56828847e-10   -1.00000000e-03    3.31368885e-05
89       1.85356817e-10   -8.00000000e-01   -7.99999745e-01    3.54685731e-02    1.00000000e+00    0.00000000e+00    3.54685731e-02    2.55257665e-10   -1.00000000e-03    3.54685731e-05
90       1.90730039e-10   -8.00000000e-01   -7.99999743e-01    3.75624619e-02    1.00000000e+00    0.00000000e+00    3.75624619e-02    2.56660304e-10   -1.00000000e-03    3.75624619e-05
91       1.96103260e-10   -8.00000000e-01   -7.99999745e-01    3.94428063e-02    1.00000000e+00    0.00000000e+00    3.94428063e-02    2.55409586e-10   -1.00000000e-03    3.94428063e-05
92       2.01476481e-10   -8.00000000e-01   -7.99999743e-01    4.11313846e-02    1.00000000e+00    0.00000000e+00    4.11313846e-02    2.56526296e-10   -1.00000000e-03    4.11313846e-05
93       2.06849703e-10   -8.00000000e-01   -7.99999744e-01    4.26477539e-02    1.00000000e+00    0.00000000e+00    4.26477539e-02    2.55530695e-10   -1.00000000e-03    4.26477539e-05
94       2.12222924e-10   -8.00000000e-01   -7.99999744e-01    4.40094770e-02    1.00000000e+00    0.00000000e+00    4.40094770e-02    2.56419779e-10   -1.00000000e-03    4.40094770e-05
95       2.17596146e-10   -8.00000000e-01   -7.99999744e-01    4.52323254e-02    1.00000000e+00    0.00000000e+00    4.52323254e-02    2.55627274e-10   -1.00000000e-03    4.52323254e-05
96       2.27596146e-10   -8.00000000e-01   -7.99999744e-01    4.71900844e-02    1.00000000e+00    0.00000000e+00    4.71900844e-02    2.56353586e-10   -1.00000000e-03    4.71900844e-05
97       2.37596146e-10   -8.00000000e-01   -7.99999744e-01    4.87918872e-02    1.00000000e+00    0.00000000e+00    4.87918872e-02    2.55671876e-10   -1.00000000e-03    4.87918872e-05
98       2.47596146e-10   -8.00000000e-01   -7.99999744e-01    5.01024532e-02    1.00000000e+00    0.00000000e+00    5.01024532e-02    2.56314574e-10   -1.00000000e-03    5.01024532e-05
99       2.57596146e-10   -8.00000000e-01   -7.99999744e-01    5.11747344e-02    1.00000000e+00    0.00000000e+00    5.11747344e-02    2.55711512e-10   -1.00000000e-03    5.11747344e-05
100      2.67596146e-10   -8.00000000e-01   -7.99999744e-01    5.20520554e-02    1.00000000e+00    0.00000000e+00    5.20520554e-02    2.56280233e-10   -1.00000000e-03    5.20520554e-05
101      2.77596146e-10   -8.00000000e-01   -7.99999744e-01    5.27698635e-02    1.00000000e+00    0.00000000e+00    5.27698635e-02    2.55746755e-10   -1.00000000e-03    5.27698635e-05
102      2.87596146e-10   -8.00000000e-01   -7.99999744e-01    5.33571611e-02    1.00000000e+00    0.00000000e+00    5.33571611e-02    2.56250024e-10   -1.00000000e-03    5.33571611e-05
103      2.97596146e-10   -8.00000000e-01   -7.99999744e-01    5.38376772e-02    1.00000000e+00    0.00000000e+00    5.38376772e-02    2.55778111e-10   -1.00000000e-03    5.38376772e-05
104      3.07596146e-10   -8.00000000e-01   -7.99999744e-01    5.42308268e-02    1.00000000e+00    0.00000000e+00    5.42308268e-02    2.56223471e-10   -1.00000000e-03    5.42308268e-05
105      3.17596146e-10   -8.00000000e-01   -7.99999744e-01    5.45524947e-02    1.00000000e+00    0.00000000e+00    5.45524947e-02    2.55806028e-10   -1.00000000e-03    5.45524947e-05
